Freq.	V(n015)
1.00000000000000e+001	(-4.24705691715703e-001dB,-1.15450591943917e+001°)
1.02329299228075e+001	(-4.43644602807342e-001dB,-1.17849640335881e+001°)
1.04712854805090e+001	(-4.63381607097137e-001dB,-1.20285424743706e+001°)
1.07151930523761e+001	(-4.83946110301030e-001dB,-1.22757610175944e+001°)
1.09647819614319e+001	(-5.05368232063037e-001dB,-1.25265787726405e+001°)
1.12201845430196e+001	(-5.27678789941662e-001dB,-1.27809470029730e+001°)
1.14815362149688e+001	(-5.50909279646630e-001dB,-1.30388086580712e+001°)
1.17489755493953e+001	(-5.75091851254308e-001dB,-1.33000978924957e+001°)
1.20226443461741e+001	(-6.00259281120469e-001dB,-1.35647395729332e+001°)
1.23026877081238e+001	(-6.26444939210561e-001dB,-1.38326487742842e+001°)
1.25892541179417e+001	(-6.53682751560031e-001dB,-1.41037302659557e+001°)
1.28824955169313e+001	(-6.82007157581272e-001dB,-1.43778779897437e+001°)
1.31825673855641e+001	(-7.11453061932174e-001dB,-1.46549745308289e+001°)
1.34896288259165e+001	(-7.42055780668350e-001dB,-1.49348905836279e+001°)
1.38038426460288e+001	(-7.73850981401665e-001dB,-1.52174844143742e+001°)
1.41253754462275e+001	(-8.06874617201070e-001dB,-1.55026013225463e+001°)
1.44543977074593e+001	(-8.41162853981831e-001dB,-1.57900731034357e+001°)
1.47910838816821e+001	(-8.76751991139608e-001dB,-1.60797175143114e+001°)
1.51356124843621e+001	(-9.13678375203505e-001dB,-1.63713377468483e+001°)
1.54881661891248e+001	(-9.51978306304077e-001dB,-1.66647219086861e+001°)
1.58489319246111e+001	(-9.91687937267097e-001dB,-1.69596425171142e+001°)
1.62181009735893e+001	(-1.03284316517422e+000dB,-1.72558560081039e+001°)
1.65958690743756e+001	(-1.07547951525207e+000dB,-1.75531022640187e+001°)
1.69824365246174e+001	(-1.11963201698457e+000dB,-1.78511041635154e+001°)
1.73780082874937e+001	(-1.16533507236838e+000dB,-1.81495671572577e+001°)
1.77827941003892e+001	(-1.21262231626623e+000dB,-1.84481788731918e+001°)
1.81970085860998e+001	(-1.26152646884614e+000dB,-1.87466087552444e+001°)
1.86208713666287e+001	(-1.31207918012236e+000dB,-1.90445077393529e+001°)
1.90546071796325e+001	(-1.36431086665278e+000dB,-1.93415079708342e+001°)
1.94984459975804e+001	(-1.41825054048130e+000dB,-1.96372225671571e+001°)
1.99526231496888e+001	(-1.47392563043884e+000dB,-1.99312454301735e+001°)
2.04173794466953e+001	(-1.53136179595249e+000dB,-2.02231511119142e+001°)
2.08929613085404e+001	(-1.59058273354444e+000dB,-2.05124947380906e+001°)
2.13796208950223e+001	(-1.65160997621949e+000dB,-2.07988119933899e+001°)
2.18776162394955e+001	(-1.71446268596911e+000dB,-2.10816191727019e+001°)
2.23872113856834e+001	(-1.77915743964270e+000dB,-2.13604133024182e+001°)
2.29086765276777e+001	(-1.84570800844837e+000dB,-2.16346723359622e+001°)
2.34422881531992e+001	(-1.91412513136070e+000dB,-2.19038554277423e+001°)
2.39883291901949e+001	(-1.98441628272902e+000dB,-2.21674032898230e+001°)
2.45470891568503e+001	(-2.05658543438290e+000dB,-2.24247386357013e+001°)
2.51188643150958e+001	(-2.13063281253982e+000dB,-2.26752667157385e+001°)
2.57039578276886e+001	(-2.20655464983396e+000dB,-2.29183759490451e+001°)
2.63026799189538e+001	(-2.28434293278401e+000dB,-2.31534386568792e+001°)
2.69153480392691e+001	(-2.36398514504109e+000dB,-2.33798119030203e+001°)
2.75422870333816e+001	(-2.44546400676813e+000dB,-2.35968384470142e+001°)
2.81838293126445e+001	(-2.52875721053998e+000dB,-2.38038478167732e+001°)
2.88403150312660e+001	(-2.61383715419023e+000dB,-2.40001575076377e+001°)
2.95120922666638e+001	(-2.70067067108875e+000dB,-2.41850743157697e+001°)
3.01995172040201e+001	(-2.78921875842557e+000dB,-2.43578958145986e+001°)
3.09029543251359e+001	(-2.87943630417166e+000dB,-2.45179119839598e+001°)
3.16227766016838e+001	(-2.97127181354614e+000dB,-2.46644070025831e+001°)
3.23593656929628e+001	(-3.06466713598317e+000dB,-2.47966612156096e+001°)
3.31131121482591e+001	(-3.15955719383525e+000dB,-2.49139532899267e+001°)
3.38844156139202e+001	(-3.25586971431055e+000dB,-2.50155625710933e+001°)
3.46736850452531e+001	(-3.35352496648952e+000dB,-2.51007716566412e+001°)
3.54813389233575e+001	(-3.45243550565314e+000dB,-2.51688692013242e+001°)
3.63078054770101e+001	(-3.55250592762562e+000dB,-2.52191529705005e+001°)
3.71535229097172e+001	(-3.65363263636115e+000dB,-2.52509331581212e+001°)
3.80189396320561e+001	(-3.75570362861210e+000dB,-2.52635359856428e+001°)
3.89045144994280e+001	(-3.85859830019268e+000dB,-2.52563075975283e+001°)
3.98107170553497e+001	(-3.96218727908685e+000dB,-2.52286182676326e+001°)
4.07380277804112e+001	(-4.06633229144905e+000dB,-2.51798669285797e+001°)
4.16869383470335e+001	(-4.17088606739349e+000dB,-2.51094860331005e+001°)
4.26579518801592e+001	(-4.27569229432095e+000dB,-2.50169467519838e+001°)
4.36515832240165e+001	(-4.38058562641904e+000dB,-2.49017645076961e+001°)
4.46683592150962e+001	(-4.48539175978047e+000dB,-2.47635048357090e+001°)
4.57088189614874e+001	(-4.58992758337496e+000dB,-2.46017895569531e+001°)
4.67735141287197e+001	(-4.69400141671762e+000dB,-2.44163032345862e+001°)
4.78630092322638e+001	(-4.79741334555993e+000dB,-2.42067998763368e+001°)
4.89778819368445e+001	(-4.89995566713845e+000dB,-2.39731098300879e+001°)
5.01187233627271e+001	(-5.00141345640162e+000dB,-2.37151468053183e+001°)
5.12861383991364e+001	(-5.10156526417835e+000dB,-2.34329149365944e+001°)
5.24807460249772e+001	(-5.20018395726791e+000dB,-2.31265157880447e+001°)
5.37031796370252e+001	(-5.29703770897604e+000dB,-2.27961551800273e+001°)
5.49540873857624e+001	(-5.39189114651500e+000dB,-2.24421497017316e+001°)
5.62341325190348e+001	(-5.48450665899174e+000dB,-2.20649327570383e+001°)
5.75439937337156e+001	(-5.57464586631157e+000dB,-2.16650599765664e+001°)
5.88843655355588e+001	(-5.66207124530202e+000dB,-2.12432138174585e+001°)
6.02559586074357e+001	(-5.74654790473754e+000dB,-2.08002071653619e+001°)
6.16595001861481e+001	(-5.82784549579558e+000dB,-2.03369857512538e+001°)
6.30957344480192e+001	(-5.90574023899155e+000dB,-1.98546292004173e+001°)
6.45654229034654e+001	(-5.98001704295647e+000dB,-1.93543505429346e+001°)
6.60693448007595e+001	(-6.05047168482422e+000dB,-1.88374940351240e+001°)
6.76082975391980e+001	(-6.11691301674464e+000dB,-1.83055311697527e+001°)
6.91830970918935e+001	(-6.17916515843428e+000dB,-1.77600547895357e+001°)
7.07945784384136e+001	(-6.23706963204747e+000dB,-1.72027712625754e+001°)
7.24435960074988e+001	(-6.29048739327924e+000dB,-1.66354907289429e+001°)
7.41310241300916e+001	(-6.33930071177267e+000dB,-1.60601154826995e+001°)
7.58577575029182e+001	(-6.38341485478954e+000dB,-1.54786266109870e+001°)
7.76247116628690e+001	(-6.42275953081323e+000dB,-1.48930690689067e+001°)
7.94328234724279e+001	(-6.45729005432115e+000dB,-1.43055354226937e+001°)
8.12830516164097e+001	(-6.48698819924641e+000dB,-1.37181485414561e+001°)
8.31763771102669e+001	(-6.51186271645979e+000dB,-1.31330435566085e+001°)
8.51138038202374e+001	(-6.53194949958405e+000dB,-1.25523494360434e+001°)
8.70963589956078e+001	(-6.54731139320215e+000dB,-1.19781705351241e+001°)
8.91250938133743e+001	(-6.55803764758489e+000dB,-1.14125684879769e+001°)
9.12010839355907e+001	(-6.56424303390326e+000dB,-1.08575447902505e+001°)
9.33254300796988e+001	(-6.56606664309484e+000dB,-1.03150243990588e+001°)
9.54992586021433e+001	(-6.56367039962086e+000dB,-9.78684063887490e+000°)
9.77237220955808e+001	(-6.55723732799605e+000dB,-9.27472165607317e+000°)
9.99999999999997e+001	(-6.54696961490605e+000dB,-8.78027861170778e+000°)
1.02329299228075e+002	(-6.53308651283048e+000dB,-8.30499574539144e+000°)
1.04712854805090e+002	(-6.51582213236155e+000dB,-7.85022238547477e+000°)
1.07151930523760e+002	(-6.49542316989533e+000dB,-7.41716692458421e+000°)
1.09647819614318e+002	(-6.47214661530543e+000dB,-7.00689272785518e+000°)
1.12201845430196e+002	(-6.44625748080024e+000dB,-6.62031589523013e+000°)
1.14815362149688e+002	(-6.41802658771622e+000dB,-6.25820476063927e+000°)
1.17489755493953e+002	(-6.38772844283921e+000dB,-5.92118098056625e+000°)
1.20226443461741e+002	(-6.35563923024861e+000dB,-5.60972204226072e+000°)
1.23026877081238e+002	(-6.32203493897316e+000dB,-5.32416500818406e+000°)
1.25892541179416e+002	(-6.28718964113268e+000dB,-5.06471130671949e+000°)
1.28824955169313e+002	(-6.25137392997228e+000dB,-4.83143237969002e+000°)
1.31825673855640e+002	(-6.21485352237969e+000dB,-4.62427600308288e+000°)
1.34896288259165e+002	(-6.17788802626123e+000dB,-4.44307310796857e+000°)
1.38038426460288e+002	(-6.14072986954743e+000dB,-4.28754494228420e+000°)
1.41253754462275e+002	(-6.10362338468360e+000dB,-4.15731043042324e+000°)
1.44543977074592e+002	(-6.06680404016718e+000dB,-4.05189360486744e+000°)
1.47910838816820e+002	(-6.03049780900693e+000dB,-3.97073100207984e+000°)
1.51356124843620e+002	(-5.99492066284356e+000dB,-3.91317893245682e+000°)
1.54881661891248e+002	(-5.96027817982635e+000dB,-3.87852055119748e+000°)
1.58489319246111e+002	(-5.92676525407782e+000dB,-3.86597267262455e+000°)
1.62181009735892e+002	(-5.89456589467907e+000dB,-3.87469228494146e+000°)
1.65958690743755e+002	(-5.86385310245580e+000dB,-3.90378273527034e+000°)
1.69824365246174e+002	(-5.83478881340148e+000dB,-3.95229956599017e+000°)
1.73780082874937e+002	(-5.80752389827232e+000dB,-4.01925599309235e+000°)
1.77827941003892e+002	(-5.78219820868376e+000dB,-4.10362802533450e+000°)
1.81970085860998e+002	(-5.75894066089096e+000dB,-4.20435922973116e+000°)
1.86208713666286e+002	(-5.73786934929362e+000dB,-4.32036515422192e+000°)
1.90546071796324e+002	(-5.71909168258279e+000dB,-4.45053742269581e+000°)
1.94984459975804e+002	(-5.70270453628669e+000dB,-4.59374752078596e+000°)
1.99526231496887e+002	(-5.68879441626550e+000dB,-4.74885029318431e+000°)
2.04173794466952e+002	(-5.67743762846397e+000dB,-4.91468717494840e+000°)
2.08929613085403e+002	(-5.66870045094694e+000dB,-5.09008918035072e+000°)
2.13796208950222e+002	(-5.66263930486398e+000dB,-5.27387967333742e+000°)
2.18776162394954e+002	(-5.65930092159915e+000dB,-5.46487694392999e+000°)
2.23872113856833e+002	(-5.65872250389971e+000dB,-5.66189661475845e+000°)
2.29086765276776e+002	(-5.66093187925937e+000dB,-5.86375390159848e+000°)
2.34422881531991e+002	(-5.66594764427491e+000dB,-6.06926575125260e+000°)
2.39883291901948e+002	(-5.67377929910490e+000dB,-6.27725287953035e+000°)
2.45470891568502e+002	(-5.68442737151647e+000dB,-6.48654173134764e+000°)
2.51188643150957e+002	(-5.69788353033975e+000dB,-6.69596638421237e+000°)
2.57039578276885e+002	(-5.71413068846949e+000dB,-6.90437041560747e+000°)
2.63026799189537e+002	(-5.73314309582478e+000dB,-7.11060875394981e+000°)
2.69153480392690e+002	(-5.75488642296587e+000dB,-7.31354953202734e+000°)
2.75422870333816e+002	(-5.77931783631426e+000dB,-7.51207596100197e+000°)
2.81838293126444e+002	(-5.80638606619194e+000dB,-7.70508824226368e+000°)
2.88403150312659e+002	(-5.83603146913663e+000dB,-7.89150553357463e+000°)
2.95120922666637e+002	(-5.86818608620870e+000dB,-8.07026798510213e+000°)
3.01995172040200e+002	(-5.90277369927202e+000dB,-8.24033886001160e+000°)
3.09029543251358e+002	(-5.93970988748474e+000dB,-8.40070675330083e+000°)
3.16227766016837e+002	(-5.97890208653343e+000dB,-8.55038792143553e+000°)
3.23593656929627e+002	(-6.02024965341256e+000dB,-8.68842873411650e+000°)
3.31131121482590e+002	(-6.06364393987517e+000dB,-8.81390825801647e+000°)
3.38844156139201e+002	(-6.10896837796826e+000dB,-8.92594098066375e+000°)
3.46736850452530e+002	(-6.15609858140678e+000dB,-9.02367968063218e+000°)
3.54813389233574e+002	(-6.20490246684763e+000dB,-9.10631844788817e+000°)
3.63078054770100e+002	(-6.25524039945625e+000dB,-9.17309585538099e+000°)
3.71535229097171e+002	(-6.30696536745152e+000dB,-9.22329827978537e+000°)
3.80189396320559e+002	(-6.35992319060897e+000dB,-9.25626336561076e+000°)
3.89045144994279e+002	(-6.41395276794568e+000dB,-9.27138362263106e+000°)
3.98107170553495e+002	(-6.46888636999637e+000dB,-9.26811014180938e+000°)
4.07380277804111e+002	(-6.52454998121016e+000dB,-9.24595640946929e+000°)
4.16869383470333e+002	(-6.58076369802759e+000dB,-9.20450219352683e+000°)
4.26579518801591e+002	(-6.63734218808076e+000dB,-9.14339746908798e+000°)
4.36515832240164e+002	(-6.69409521574535e+000dB,-9.06236634378979e+000°)
4.46683592150961e+002	(-6.75082823882825e+000dB,-8.96121093598985e+000°)
4.57088189614873e+002	(-6.80734308060634e+000dB,-8.83981515138370e+000°)
4.67735141287196e+002	(-6.86343868057243e+000dB,-8.69814829630732e+000°)
4.78630092322636e+002	(-6.91891192621500e+000dB,-8.53626845868707e+000°)
4.89778819368444e+002	(-6.97355856684530e+000dB,-8.35432558108627e+000°)
5.01187233627270e+002	(-7.02717420891807e+000dB,-8.15256414467910e+000°)
5.12861383991362e+002	(-7.07955539052206e+000dB,-7.93132537845214e+000°)
5.24807460249770e+002	(-7.13050073066601e+000dB,-7.69104890547947e+000°)
5.37031796370250e+002	(-7.17981214679876e+000dB,-7.43227373726773e+000°)
5.49540873857622e+002	(-7.22729613163189e+000dB,-7.15563852928223e+000°)
5.62341325190346e+002	(-7.27276507791345e+000dB,-6.86188101521539e+000°)
5.75439937337154e+002	(-7.31603863737657e+000dB,-6.55183654539084e+000°)
5.88843655355586e+002	(-7.35694509775204e+000dB,-6.22643566555702e+000°)
6.02559586074355e+002	(-7.39532275961234e+000dB,-5.88670068637420e+000°)
6.16595001861479e+002	(-7.43102129298037e+000dB,-5.53374121122472e+000°)
6.30957344480190e+002	(-7.46390305224371e+000dB,-5.16874860980764e+000°)
6.45654229034652e+002	(-7.49384432701316e+000dB,-4.79298944734109e+000°)
6.60693448007592e+002	(-7.52073650627768e+000dB,-4.40779790307912e+000°)
6.76082975391978e+002	(-7.54448713360030e+000dB,-4.01456723662106e+000°)
6.91830970918933e+002	(-7.56502083217693e+000dB,-3.61474038517665e+000°)
7.07945784384134e+002	(-7.58228008039905e+000dB,-3.20979979856993e+000°)
7.24435960074986e+002	(-7.59622582104769e+000dB,-2.80125664035788e+000°)
7.41310241300914e+002	(-7.60683789036024e+000dB,-2.39063950191708e+000°)
7.58577575029180e+002	(-7.61411525685505e+000dB,-1.97948279087231e+000°)
7.76247116628688e+002	(-7.61807606381414e+000dB,-1.56931496545017e+000°)
7.94328234724277e+002	(-7.61875747359996e+000dB,-1.16164679094366e+000°)
8.12830516164095e+002	(-7.61621531631043e+000dB,-7.57959794304122e-001°)
8.31763771102666e+002	(-7.61052354951512e+000dB,-3.59695086925358e-001°)
8.51138038202372e+002	(-7.60177353978456e+000dB,3.17572849602830e-002°)
8.70963589956076e+002	(-7.59007318026848e+000dB,4.15068318198214e-001°)
8.91250938133741e+002	(-7.57554586160375e+000dB,7.88979233895947e-001°)
9.12010839355905e+002	(-7.55832931579052e+000dB,1.15230975867094e+000°)
9.33254300796986e+002	(-7.53857435437392e+000dB,1.50396542663698e+000°)
9.54992586021431e+002	(-7.51644352322062e+000dB,1.84294384748463e+000°)
9.77237220955805e+002	(-7.49210969645283e+000dB,2.16833991049194e+000°)
9.99999999999994e+002	(-7.46575463169227e+000dB,2.47934991804900e+000°)
1.02329299228075e+003	(-7.43756750779276e+000dB,2.77527466390969e+000°)
1.04712854805089e+003	(-7.40774346474777e+000dB,3.05552149089504e+000°)
1.07151930523760e+003	(-7.37648216358035e+000dB,3.31960537930084e+000°)
1.09647819614318e+003	(-7.34398638185796e+000dB,3.56714913063891e+000°)
1.12201845430196e+003	(-7.31046065812246e+000dB,3.79788272162468e+000°)
1.14815362149688e+003	(-7.27610999610505e+000dB,4.01164191028097e+000°)
1.17489755493952e+003	(-7.24113863718070e+000dB,4.20836618002215e+000°)
1.20226443461741e+003	(-7.20574890718872e+000dB,4.38809610891934e+000°)
1.23026877081237e+003	(-7.17014014158541e+000dB,4.55097025006621e+000°)
1.25892541179416e+003	(-7.13450769091017e+000dB,4.69722160589859e+000°)
1.28824955169313e+003	(-7.09904200681491e+000dB,4.82717377440626e+000°)
1.31825673855640e+003	(-7.06392780739871e+000dB,4.94123683919681e+000°)
1.34896288259165e+003	(-7.02934331936160e+000dB,5.03990306834525e+000°)
1.38038426460288e+003	(-6.99545959348946e+000dB,5.12374247954275e+000°)
1.41253754462275e+003	(-6.96243988923278e+000dB,5.19339832126146e+000°)
1.44543977074592e+003	(-6.93043912358846e+000dB,5.24958251202051e+000°)
1.47910838816820e+003	(-6.89960337917857e+000dB,5.29307107211279e+000°)
1.51356124843620e+003	(-6.87006946622648e+000dB,5.32469957511899e+000°)
1.54881661891247e+003	(-6.84196453312571e+000dB,5.34535863966393e+000°)
1.58489319246110e+003	(-6.81540572039961e+000dB,5.35598947566852e+000°)
1.62181009735892e+003	(-6.79049985305813e+000dB,5.35757949370263e+000°)
1.65958690743755e+003	(-6.76734316665231e+000dB,5.35115798088689e+000°)
1.69824365246173e+003	(-6.74602106268313e+000dB,5.33779184235422e+000°)
1.73780082874936e+003	(-6.72660788943833e+000dB,5.31858140321992e+000°)
1.77827941003891e+003	(-6.70916674477430e+000dB,5.29465626264340e+000°)
1.81970085860997e+003	(-6.69374929784581e+000dB,5.26717118853896e+000°)
1.86208713666286e+003	(-6.68039562728851e+000dB,5.23730203903744e+000°)
1.90546071796323e+003	(-6.66913407388711e+000dB,5.20624169469221e+000°)
1.94984459975803e+003	(-6.65998110630758e+000dB,5.17519598371410e+000°)
1.99526231496887e+003	(-6.65294119901139e+000dB,5.14537958125629e+000°)
2.04173794466952e+003	(-6.64800672207171e+000dB,5.11801186274776e+000°)
2.08929613085403e+003	(-6.64515784317750e+000dB,5.09431269072573e+000°)
2.13796208950222e+003	(-6.64436244273326e+000dB,5.07549811437634e+000°)
2.18776162394954e+003	(-6.64557604359291e+000dB,5.06277596116497e+000°)
2.23872113856832e+003	(-6.64874175760147e+000dB,5.05734130056099e+000°)
2.29086765276776e+003	(-6.65379025179439e+000dB,5.06037176092063e+000°)
2.34422881531991e+003	(-6.66063973780150e+000dB,5.07302268226533e+000°)
2.39883291901947e+003	(-6.66919598866487e+000dB,5.09642208988417e+000°)
2.45470891568501e+003	(-6.67935238802887e+000dB,5.13166547666802e+000°)
2.51188643150956e+003	(-6.69099001731626e+000dB,5.17981038576403e+000°)
2.57039578276885e+003	(-6.70397778721603e+000dB,5.24187078971604e+000°)
2.63026799189536e+003	(-6.71817262042998e+000dB,5.31881126777173e+000°)
2.69153480392690e+003	(-6.73341969321539e+000dB,5.41154098955309e+000°)
2.75422870333815e+003	(-6.74955274374819e+000dB,5.52090752088349e+000°)
2.81838293126443e+003	(-6.76639445569949e+000dB,5.64769047624066e+000°)
2.88403150312659e+003	(-6.78375692561351e+000dB,5.79259505204068e+000°)
2.95120922666636e+003	(-6.80144222268850e+000dB,5.95624548575166e+000°)
3.01995172040199e+003	(-6.81924304929528e+000dB,6.13917849744412e+000°)
3.09029543251357e+003	(-6.83694351002568e+000dB,6.34183678274468e+000°)
3.16227766016836e+003	(-6.85431999615907e+000dB,6.56456263885679e+000°)
3.23593656929626e+003	(-6.87114219116530e+000dB,6.80759181808745e+000°)
3.31131121482589e+003	(-6.88717420114557e+000dB,7.07104771559179e+000°)
3.38844156139200e+003	(-6.90217581197237e+000dB,7.35493600933837e+000°)
3.46736850452529e+003	(-6.91590387230202e+000dB,7.65913987996003e+000°)
3.54813389233573e+003	(-6.92811379858966e+000dB,7.98341594534667e+000°)
3.63078054770099e+003	(-6.93856119483032e+000dB,8.32739104905011e+000°)
3.71535229097170e+003	(-6.94700357599583e+000dB,8.69056004181607e+000°)
3.80189396320558e+003	(-6.95320218017246e+000dB,9.07228469131479e+000°)
3.89045144994278e+003	(-6.95692385034511e+000dB,9.47179384576130e+000°)
3.98107170553494e+003	(-6.95794296278499e+000dB,9.88818496221856e+000°)
4.07380277804110e+003	(-6.95604337525887e+000dB,1.03204270897449e+001°)
4.16869383470332e+003	(-6.95102036498629e+000dB,1.07673653712641e+001°)
4.26579518801589e+003	(-6.94268252365907e+000dB,1.12277270967461e+001°)
4.36515832240162e+003	(-6.93085357504706e+000dB,1.17001293043623e+001°)
4.46683592150960e+003	(-6.91537407998042e+000dB,1.21830878873134e+001°)
4.57088189614871e+003	(-6.89610299390407e+000dB,1.26750281230653e+001°)
4.67735141287194e+003	(-6.87291904387459e+000dB,1.31742965008165e+001°)
4.78630092322634e+003	(-6.84572189478628e+000dB,1.36791736836836e+001°)
4.89778819368442e+003	(-6.81443307875878e+000dB,1.41878884064740e+001°)
5.01187233627268e+003	(-6.77899666684786e+000dB,1.46986320797519e+001°)
5.12861383991361e+003	(-6.73937966837279e+000dB,1.52095738478086e+001°)
5.24807460249768e+003	(-6.69557214991523e+000dB,1.57188758332627e+001°)
5.37031796370248e+003	(-6.64758707318097e+000dB,1.62247082954881e+001°)
