Freq.	V(n017)
1.00000000000000e+001	(9.54210261835906e+000dB,1.79998624355470e+002°)
1.02329299228075e+001	(9.54210262232450e+000dB,1.79998592309740e+002°)
1.04712854805090e+001	(9.54210262647177e+000dB,1.79998559517368e+002°)
1.07151930523761e+001	(9.54210263080891e+000dB,1.79998525960951e+002°)
1.09647819614319e+001	(9.54210263534442e+000dB,1.79998491622676e+002°)
1.12201845430196e+001	(9.54210264008698e+000dB,1.79998456484316e+002°)
1.14815362149688e+001	(9.54210264504584e+000dB,1.79998420527218e+002°)
1.17489755493953e+001	(9.54210265023041e+000dB,1.79998383732292e+002°)
1.20226443461741e+001	(9.54210265565062e+000dB,1.79998346080006e+002°)
1.23026877081238e+001	(9.54210266131683e+000dB,1.79998307550367e+002°)
1.25892541179417e+001	(9.54210266723962e+000dB,1.79998268122918e+002°)
1.28824955169313e+001	(9.54210267343020e+000dB,1.79998227776724e+002°)
1.31825673855641e+001	(9.54210267990011e+000dB,1.79998186490359e+002°)
1.34896288259165e+001	(9.54210268666139e+000dB,1.79998144241898e+002°)
1.38038426460288e+001	(9.54210269372650e+000dB,1.79998101008903e+002°)
1.41253754462275e+001	(9.54210270110841e+000dB,1.79998056768412e+002°)
1.44543977074593e+001	(9.54210270882050e+000dB,1.79998011496925e+002°)
1.47910838816821e+001	(9.54210271687676e+000dB,1.79997965170395e+002°)
1.51356124843621e+001	(9.54210272529162e+000dB,1.79997917764210e+002°)
1.54881661891248e+001	(9.54210273408002e+000dB,1.79997869253185e+002°)
1.58489319246111e+001	(9.54210274325754e+000dB,1.79997819611544e+002°)
1.62181009735893e+001	(9.54210275284015e+000dB,1.79997768812909e+002°)
1.65958690743756e+001	(9.54210276284452e+000dB,1.79997716830284e+002°)
1.69824365246174e+001	(9.54210277328778e+000dB,1.79997663636044e+002°)
1.73780082874937e+001	(9.54210278418763e+000dB,1.79997609201915e+002°)
1.77827941003892e+001	(9.54210279556244e+000dB,1.79997553498962e+002°)
1.81970085860998e+001	(9.54210280743116e+000dB,1.79997496497574e+002°)
1.86208713666287e+001	(9.54210281981314e+000dB,1.79997438167444e+002°)
1.90546071796325e+001	(9.54210283272863e+000dB,1.79997378477560e+002°)
1.94984459975804e+001	(9.54210284619825e+000dB,1.79997317396179e+002°)
1.99526231496888e+001	(9.54210286024330e+000dB,1.79997254890819e+002°)
2.04173794466953e+001	(9.54210287488565e+000dB,1.79997190928235e+002°)
2.08929613085404e+001	(9.54210289014772e+000dB,1.79997125474403e+002°)
2.13796208950223e+001	(9.54210290605274e+000dB,1.79997058494504e+002°)
2.18776162394955e+001	(9.54210292262418e+000dB,1.79996989952902e+002°)
2.23872113856834e+001	(9.54210293988638e+000dB,1.79996919813126e+002°)
2.29086765276777e+001	(9.54210295786405e+000dB,1.79996848037851e+002°)
2.34422881531992e+001	(9.54210297658253e+000dB,1.79996774588878e+002°)
2.39883291901949e+001	(9.54210299606762e+000dB,1.79996699427113e+002°)
2.45470891568503e+001	(9.54210301634579e+000dB,1.79996622512544e+002°)
2.51188643150958e+001	(9.54210303744367e+000dB,1.79996543804223e+002°)
2.57039578276886e+001	(9.54210305938867e+000dB,1.79996463260243e+002°)
2.63026799189538e+001	(9.54210308220833e+000dB,1.79996380837714e+002°)
2.69153480392691e+001	(9.54210310593081e+000dB,1.79996296492741e+002°)
2.75422870333816e+001	(9.54210313058443e+000dB,1.79996210180399e+002°)
2.81838293126445e+001	(9.54210315619792e+000dB,1.79996121854714e+002°)
2.88403150312660e+001	(9.54210318280016e+000dB,1.79996031468630e+002°)
2.95120922666638e+001	(9.54210321042020e+000dB,1.79995938973994e+002°)
3.01995172040201e+001	(9.54210323908732e+000dB,1.79995844321520e+002°)
3.09029543251359e+001	(9.54210326883079e+000dB,1.79995747460770e+002°)
3.16227766016838e+001	(9.54210329967996e+000dB,1.79995648340125e+002°)
3.23593656929628e+001	(9.54210333166398e+000dB,1.79995546906756e+002°)
3.31131121482591e+001	(9.54210336481198e+000dB,1.79995443106598e+002°)
3.38844156139202e+001	(9.54210339915278e+000dB,1.79995336884321e+002°)
3.46736850452531e+001	(9.54210343471496e+000dB,1.79995228183299e+002°)
3.54813389233575e+001	(9.54210347152669e+000dB,1.79995116945582e+002°)
3.63078054770101e+001	(9.54210350961567e+000dB,1.79995003111865e+002°)
3.71535229097172e+001	(9.54210354900907e+000dB,1.79994886621457e+002°)
3.80189396320561e+001	(9.54210358973330e+000dB,1.79994767412246e+002°)
3.89045144994280e+001	(9.54210363181419e+000dB,1.79994645420673e+002°)
3.98107170553497e+001	(9.54210367527663e+000dB,1.79994520581691e+002°)
4.07380277804112e+001	(9.54210372014464e+000dB,1.79994392828737e+002°)
4.16869383470335e+001	(9.54210376644125e+000dB,1.79994262093693e+002°)
4.26579518801592e+001	(9.54210381418840e+000dB,1.79994128306855e+002°)
4.36515832240165e+001	(9.54210386340683e+000dB,1.79993991396892e+002°)
4.46683592150962e+001	(9.54210391411606e+000dB,1.79993851290811e+002°)
4.57088189614874e+001	(9.54210396633433e+000dB,1.79993707913921e+002°)
4.67735141287197e+001	(9.54210402007859e+000dB,1.79993561189790e+002°)
4.78630092322638e+001	(9.54210407536421e+000dB,1.79993411040211e+002°)
4.89778819368445e+001	(9.54210413220527e+000dB,1.79993257385156e+002°)
5.01187233627271e+001	(9.54210419061440e+000dB,1.79993100142738e+002°)
5.12861383991364e+001	(9.54210425060257e+000dB,1.79992939229168e+002°)
5.24807460249772e+001	(9.54210431217947e+000dB,1.79992774558712e+002°)
5.37031796370252e+001	(9.54210437535325e+000dB,1.79992606043647e+002°)
5.49540873857624e+001	(9.54210444013068e+000dB,1.79992433594215e+002°)
5.62341325190348e+001	(9.54210450651711e+000dB,1.79992257118577e+002°)
5.75439937337156e+001	(9.54210457451665e+000dB,1.79992076522765e+002°)
5.88843655355588e+001	(9.54210464413228e+000dB,1.79991891710636e+002°)
6.02559586074357e+001	(9.54210471536582e+000dB,1.79991702583819e+002°)
6.16595001861481e+001	(9.54210478821816e+000dB,1.79991509041667e+002°)
6.30957344480192e+001	(9.54210486268950e+000dB,1.79991310981204e+002°)
6.45654229034654e+001	(9.54210493877937e+000dB,1.79991108297069e+002°)
6.60693448007595e+001	(9.54210501648703e+000dB,1.79990900881466e+002°)
6.76082975391980e+001	(9.54210509581144e+000dB,1.79990688624104e+002°)
6.91830970918935e+001	(9.54210517675178e+000dB,1.79990471412142e+002°)
7.07945784384136e+001	(9.54210525930755e+000dB,1.79990249130128e+002°)
7.24435960074988e+001	(9.54210534347889e+000dB,1.79990021659940e+002°)
7.41310241300916e+001	(9.54210542926686e+000dB,1.79989788880724e+002°)
7.58577575029182e+001	(9.54210551667396e+000dB,1.79989550668828e+002°)
7.76247116628690e+001	(9.54210560570405e+000dB,1.79989306897741e+002°)
7.94328234724279e+001	(9.54210569636318e+000dB,1.79989057438021e+002°)
8.12830516164097e+001	(9.54210578865954e+000dB,1.79988802157229e+002°)
8.31763771102669e+001	(9.54210588260413e+000dB,1.79988540919861e+002°)
8.51138038202374e+001	(9.54210597821093e+000dB,1.79988273587268e+002°)
8.70963589956078e+001	(9.54210607549742e+000dB,1.79988000017592e+002°)
8.91250938133743e+001	(9.54210617448487e+000dB,1.79987720065680e+002°)
9.12010839355907e+001	(9.54210627519868e+000dB,1.79987433583014e+002°)
9.33254300796988e+001	(9.54210637766893e+000dB,1.79987140417624e+002°)
9.54992586021433e+001	(9.54210648193054e+000dB,1.79986840414014e+002°)
9.77237220955808e+001	(9.54210658802379e+000dB,1.79986533413068e+002°)
9.99999999999997e+001	(9.54210669599459e+000dB,1.79986219251974e+002°)
1.02329299228075e+002	(9.54210680589487e+000dB,1.79985897764128e+002°)
1.04712854805090e+002	(9.54210691778284e+000dB,1.79985568779047e+002°)
1.07151930523760e+002	(9.54210703172343e+000dB,1.79985232122275e+002°)
1.09647819614318e+002	(9.54210714778847e+000dB,1.79984887615289e+002°)
1.12201845430196e+002	(9.54210726605698e+000dB,1.79984535075401e+002°)
1.14815362149688e+002	(9.54210738661559e+000dB,1.79984174315659e+002°)
1.17489755493953e+002	(9.54210750955862e+000dB,1.79983805144744e+002°)
1.20226443461741e+002	(9.54210763498838e+000dB,1.79983427366866e+002°)
1.23026877081238e+002	(9.54210776301540e+000dB,1.79983040781659e+002°)
1.25892541179416e+002	(9.54210789375862e+000dB,1.79982645184068e+002°)
1.28824955169313e+002	(9.54210802734555e+000dB,1.79982240364238e+002°)
1.31825673855640e+002	(9.54210816391238e+000dB,1.79981826107404e+002°)
1.34896288259165e+002	(9.54210830360430e+000dB,1.79981402193766e+002°)
1.38038426460288e+002	(9.54210844657545e+000dB,1.79980968398376e+002°)
1.41253754462275e+002	(9.54210859298908e+000dB,1.79980524491010e+002°)
1.44543977074592e+002	(9.54210874301761e+000dB,1.79980070236046e+002°)
1.47910838816820e+002	(9.54210889684282e+000dB,1.79979605392335e+002°)
1.51356124843620e+002	(9.54210905465577e+000dB,1.79979129713066e+002°)
1.54881661891248e+002	(9.54210921665686e+000dB,1.79978642945635e+002°)
1.58489319246111e+002	(9.54210938305595e+000dB,1.79978144831509e+002°)
1.62181009735892e+002	(9.54210955407226e+000dB,1.79977635106080e+002°)
1.65958690743755e+002	(9.54210972993442e+000dB,1.79977113498523e+002°)
1.69824365246174e+002	(9.54210991088037e+000dB,1.79976579731650e+002°)
1.73780082874937e+002	(9.54211009715732e+000dB,1.79976033521760e+002°)
1.77827941003892e+002	(9.54211028902187e+000dB,1.79975474578478e+002°)
1.81970085860998e+002	(9.54211048673957e+000dB,1.79974902604608e+002°)
1.86208713666286e+002	(9.54211069058503e+000dB,1.79974317295959e+002°)
1.90546071796324e+002	(9.54211090084199e+000dB,1.79973718341191e+002°)
1.94984459975804e+002	(9.54211111780255e+000dB,1.79973105421638e+002°)
1.99526231496887e+002	(9.54211134176763e+000dB,1.79972478211137e+002°)
2.04173794466952e+002	(9.54211157304644e+000dB,1.79971836375853e+002°)
2.08929613085403e+002	(9.54211181195622e+000dB,1.79971179574096e+002°)
2.13796208950222e+002	(9.54211205882201e+000dB,1.79970507456134e+002°)
2.18776162394954e+002	(9.54211231397641e+000dB,1.79969819664006e+002°)
2.23872113856833e+002	(9.54211257775914e+000dB,1.79969115831327e+002°)
2.29086765276776e+002	(9.54211285051661e+000dB,1.79968395583089e+002°)
2.34422881531991e+002	(9.54211313260161e+000dB,1.79967658535458e+002°)
2.39883291901948e+002	(9.54211342437273e+000dB,1.79966904295565e+002°)
2.45470891568502e+002	(9.54211372619376e+000dB,1.79966132461297e+002°)
2.51188643150957e+002	(9.54211403843332e+000dB,1.79965342621076e+002°)
2.57039578276885e+002	(9.54211436146397e+000dB,1.79964534353638e+002°)
2.63026799189537e+002	(9.54211469566161e+000dB,1.79963707227805e+002°)
2.69153480392690e+002	(9.54211504140480e+000dB,1.79962860802256e+002°)
2.75422870333816e+002	(9.54211539907373e+000dB,1.79961994625283e+002°)
2.81838293126444e+002	(9.54211576904952e+000dB,1.79961108234555e+002°)
2.88403150312659e+002	(9.54211615171313e+000dB,1.79960201156865e+002°)
2.95120922666637e+002	(9.54211654744434e+000dB,1.79959272907878e+002°)
3.01995172040200e+002	(9.54211695662081e+000dB,1.79958322991873e+002°)
3.09029543251358e+002	(9.54211737961665e+000dB,1.79957350901475e+002°)
3.16227766016837e+002	(9.54211781680140e+000dB,1.79956356117388e+002°)
3.23593656929627e+002	(9.54211826853855e+000dB,1.79955338108115e+002°)
3.31131121482590e+002	(9.54211873518435e+000dB,1.79954296329681e+002°)
3.38844156139201e+002	(9.54211921708628e+000dB,1.79953230225338e+002°)
3.46736850452530e+002	(9.54211971458149e+000dB,1.79952139225276e+002°)
3.54813389233574e+002	(9.54212022799547e+000dB,1.79951022746322e+002°)
3.63078054770100e+002	(9.54212075764020e+000dB,1.79949880191630e+002°)
3.71535229097171e+002	(9.54212130381278e+000dB,1.79948710950370e+002°)
3.80189396320559e+002	(9.54212186679354e+000dB,1.79947514397411e+002°)
3.89045144994279e+002	(9.54212244684462e+000dB,1.79946289892990e+002°)
3.98107170553495e+002	(9.54212304420797e+000dB,1.79945036782383e+002°)
4.07380277804111e+002	(9.54212365910411e+000dB,1.79943754395561e+002°)
4.16869383470333e+002	(9.54212429172998e+000dB,1.79942442046849e+002°)
4.26579518801591e+002	(9.54212494225774e+000dB,1.79941099034568e+002°)
4.36515832240164e+002	(9.54212561083287e+000dB,1.79939724640674e+002°)
4.46683592150961e+002	(9.54212629757295e+000dB,1.79938318130390e+002°)
4.57088189614873e+002	(9.54212700256608e+000dB,1.79936878751830e+002°)
4.67735141287196e+002	(9.54212772586954e+000dB,1.79935405735614e+002°)
4.78630092322636e+002	(9.54212846750874e+000dB,1.79933898294475e+002°)
4.89778819368444e+002	(9.54212922747613e+000dB,1.79932355622859e+002°)
5.01187233627270e+002	(9.54213000573021e+000dB,1.79930776896512e+002°)
5.12861383991362e+002	(9.54213080219505e+000dB,1.79929161272067e+002°)
5.24807460249770e+002	(9.54213161675959e+000dB,1.79927507886610e+002°)
5.37031796370250e+002	(9.54213244927751e+000dB,1.79925815857245e+002°)
5.49540873857622e+002	(9.54213329956725e+000dB,1.79924084280646e+002°)
5.62341325190346e+002	(9.54213416741211e+000dB,1.79922312232598e+002°)
5.75439937337154e+002	(9.54213505256072e+000dB,1.79920498767528e+002°)
5.88843655355586e+002	(9.54213595472809e+000dB,1.79918642918024e+002°)
6.02559586074355e+002	(9.54213687359635e+000dB,1.79916743694343e+002°)
6.16595001861479e+002	(9.54213780881629e+000dB,1.79914800083907e+002°)
6.30957344480190e+002	(9.54213876000907e+000dB,1.79912811050786e+002°)
6.45654229034652e+002	(9.54213972676808e+000dB,1.79910775535166e+002°)
6.60693448007592e+002	(9.54214070866111e+000dB,1.79908692452806e+002°)
6.76082975391978e+002	(9.54214170523321e+000dB,1.79906560694479e+002°)
6.91830970918933e+002	(9.54214271600913e+000dB,1.79904379125402e+002°)
7.07945784384134e+002	(9.54214374049666e+000dB,1.79902146584643e+002°)
7.24435960074986e+002	(9.54214477818979e+000dB,1.79899861884520e+002°)
7.41310241300914e+002	(9.54214582857239e+000dB,1.79897523809979e+002°)
7.58577575029180e+002	(9.54214689112179e+000dB,1.79895131117958e+002°)
7.76247116628688e+002	(9.54214796531273e+000dB,1.79892682536734e+002°)
7.94328234724277e+002	(9.54214905062139e+000dB,1.79890176765246e+002°)
8.12830516164095e+002	(9.54215014652958e+000dB,1.79887612472408e+002°)
8.31763771102666e+002	(9.54215125252876e+000dB,1.79884988296400e+002°)
8.51138038202372e+002	(9.54215236812430e+000dB,1.79882302843937e+002°)
8.70963589956076e+002	(9.54215349283985e+000dB,1.79879554689522e+002°)
8.91250938133741e+002	(9.54215462622116e+000dB,1.79876742374680e+002°)
9.12010839355905e+002	(9.54215576784039e+000dB,1.79873864407164e+002°)
9.33254300796986e+002	(9.54215691729996e+000dB,1.79870919260151e+002°)
9.54992586021431e+002	(9.54215807423622e+000dB,1.79867905371410e+002°)
9.77237220955805e+002	(9.54215923832311e+000dB,1.79864821142447e+002°)
9.99999999999994e+002	(9.54216040927529e+000dB,1.79861664937634e+002°)
1.02329299228075e+003	(9.54216158685151e+000dB,1.79858435083311e+002°)
1.04712854805089e+003	(9.54216277085704e+000dB,1.79855129866870e+002°)
1.07151930523760e+003	(9.54216396114628e+000dB,1.79851747535810e+002°)
1.09647819614318e+003	(9.54216515762479e+000dB,1.79848286296773e+002°)
1.12201845430196e+003	(9.54216636025091e+000dB,1.79844744314557e+002°)
1.14815362149688e+003	(9.54216756903727e+000dB,1.79841119711102e+002°)
1.17489755493952e+003	(9.54216878405161e+000dB,1.79837410564455e+002°)
1.20226443461741e+003	(9.54217000541722e+000dB,1.79833614907709e+002°)
1.23026877081237e+003	(9.54217123331318e+000dB,1.79829730727915e+002°)
1.25892541179416e+003	(9.54217246797390e+000dB,1.79825755964971e+002°)
1.28824955169313e+003	(9.54217370968846e+000dB,1.79821688510487e+002°)
1.31825673855640e+003	(9.54217495879913e+000dB,1.79817526206620e+002°)
1.34896288259165e+003	(9.54217621570004e+000dB,1.79813266844882e+002°)
1.38038426460288e+003	(9.54217748083478e+000dB,1.79808908164925e+002°)
1.41253754462275e+003	(9.54217875469395e+000dB,1.79804447853296e+002°)
1.44543977074592e+003	(9.54218003781202e+000dB,1.79799883542161e+002°)
1.47910838816820e+003	(9.54218133076404e+000dB,1.79795212808005e+002°)
1.51356124843620e+003	(9.54218263416140e+000dB,1.79790433170298e+002°)
1.54881661891247e+003	(9.54218394864764e+000dB,1.79785542090136e+002°)
1.58489319246110e+003	(9.54218527489340e+000dB,1.79780536968846e+002°)
1.62181009735892e+003	(9.54218661359116e+000dB,1.79775415146563e+002°)
1.65958690743755e+003	(9.54218796544924e+000dB,1.79770173900773e+002°)
1.69824365246173e+003	(9.54218933118545e+000dB,1.79764810444825e+002°)
1.73780082874936e+003	(9.54219071152028e+000dB,1.79759321926409e+002°)
1.77827941003891e+003	(9.54219210716933e+000dB,1.79753705425996e+002°)
1.81970085860997e+003	(9.54219351883542e+000dB,1.79747957955253e+002°)
1.86208713666286e+003	(9.54219494720004e+000dB,1.79742076455409e+002°)
1.90546071796323e+003	(9.54219639291409e+000dB,1.79736057795594e+002°)
1.94984459975803e+003	(9.54219785658827e+000dB,1.79729898771139e+002°)
1.99526231496887e+003	(9.54219933878243e+000dB,1.79723596101834e+002°)
2.04173794466952e+003	(9.54220083999475e+000dB,1.79717146430152e+002°)
2.08929613085403e+003	(9.54220236064975e+000dB,1.79710546319432e+002°)
2.13796208950222e+003	(9.54220390108584e+000dB,1.79703792252018e+002°)
2.18776162394954e+003	(9.54220546154203e+000dB,1.79696880627363e+002°)
2.23872113856832e+003	(9.54220704214382e+000dB,1.79689807760087e+002°)
2.29086765276776e+003	(9.54220864288835e+000dB,1.79682569877995e+002°)
2.34422881531991e+003	(9.54221026362869e+000dB,1.79675163120044e+002°)
2.39883291901947e+003	(9.54221190405713e+000dB,1.79667583534282e+002°)
2.45470891568501e+003	(9.54221356368775e+000dB,1.79659827075722e+002°)
2.51188643150956e+003	(9.54221524183795e+000dB,1.79651889604189e+002°)
2.57039578276885e+003	(9.54221693760914e+000dB,1.79643766882105e+002°)
2.63026799189536e+003	(9.54221864986645e+000dB,1.79635454572240e+002°)
2.69153480392690e+003	(9.54222037721738e+000dB,1.79626948235405e+002°)
2.75422870333815e+003	(9.54222211798974e+000dB,1.79618243328104e+002°)
2.81838293126443e+003	(9.54222387020843e+000dB,1.79609335200133e+002°)
2.88403150312659e+003	(9.54222563157131e+000dB,1.79600219092127e+002°)
2.95120922666636e+003	(9.54222739942441e+000dB,1.79590890133063e+002°)
3.01995172040199e+003	(9.54222917073586e+000dB,1.79581343337703e+002°)
3.09029543251357e+003	(9.54223094206934e+000dB,1.79571573603994e+002°)
3.16227766016836e+003	(9.54223270955654e+000dB,1.79561575710404e+002°)
3.23593656929626e+003	(9.54223446886894e+000dB,1.79551344313212e+002°)
3.31131121482589e+003	(9.54223621518911e+000dB,1.79540873943741e+002°)
3.38844156139200e+003	(9.54223794318092e+000dB,1.79530159005529e+002°)
3.46736850452529e+003	(9.54223964696000e+000dB,1.79519193771454e+002°)
3.54813389233573e+003	(9.54224132006311e+000dB,1.79507972380785e+002°)
3.63078054770099e+003	(9.54224295541774e+000dB,1.79496488836188e+002°)
3.71535229097170e+003	(9.54224454531129e+000dB,1.79484737000659e+002°)
3.80189396320558e+003	(9.54224608136007e+000dB,1.79472710594401e+002°)
3.89045144994278e+003	(9.54224755447886e+000dB,1.79460403191629e+002°)
3.98107170553494e+003	(9.54224895485006e+000dB,1.79447808217316e+002°)
4.07380277804110e+003	(9.54225027189383e+000dB,1.79434918943864e+002°)
4.16869383470332e+003	(9.54225149423807e+000dB,1.79421728487704e+002°)
4.26579518801589e+003	(9.54225260968942e+000dB,1.79408229805829e+002°)
4.36515832240162e+003	(9.54225360520498e+000dB,1.79394415692237e+002°)
4.46683592150960e+003	(9.54225446686449e+000dB,1.79380278774312e+002°)
4.57088189614871e+003	(9.54225517984387e+000dB,1.79365811509106e+002°)
4.67735141287194e+003	(9.54225572838965e+000dB,1.79351006179551e+002°)
4.78630092322634e+003	(9.54225609579417e+000dB,1.79335854890569e+002°)
4.89778819368442e+003	(9.54225626437257e+000dB,1.79320349565097e+002°)
5.01187233627268e+003	(9.54225621544023e+000dB,1.79304481940017e+002°)
5.12861383991361e+003	(9.54225592929188e+000dB,1.79288243561984e+002°)
5.24807460249768e+003	(9.54225538518163e+000dB,1.79271625783145e+002°)
5.37031796370248e+003	(9.54225456130392e+000dB,1.79254619756763e+002°)
5.49540873857620e+003	(9.54225343477588e+000dB,1.79237216432717e+002°)
5.62341325190344e+003	(9.54225198161999e+000dB,1.79219406552893e+002°)
5.75439937337152e+003	(9.54225017674783e+000dB,1.79201180646451e+002°)
5.88843655355584e+003	(9.54224799394400e+000dB,1.79182529024973e+002°)
6.02559586074353e+003	(9.54224540585064e+000dB,1.79163441777472e+002°)
6.16595001861477e+003	(9.54224238395152e+000dB,1.79143908765281e+002°)
6.30957344480188e+003	(9.54223889855600e+000dB,1.79123919616796e+002°)
